T52C0 000:006.310   SEGGER J-Link V7.82 Log File
T52C0 000:006.394   DLL Compiled: Oct 13 2022 13:32:51
T52C0 000:006.397   Logging started @ 2026-09-02 06:22
T52C0 000:006.400 - 6.402ms
T52C0 000:006.407 JLINK_SetWarnOutHandler(...)
T52C0 000:006.411 - 0.005ms
T52C0 000:006.414 JLINK_OpenEx(...)
T52C0 000:007.515   Firmware: J-Link v11 compiled Aug  2 2052 10:34:01
T52C0 000:007.888   Firmware: J-Link v11 compiled Aug  2 2052 10:34:01
T52C0 000:010.384   Hardware: V11.00
T52C0 000:010.391   S/N: 250710764
T52C0 000:010.395   OEM: SEGGER
T52C0 000:010.399   Feature(s): GDB, RDI, FlashBP, FlashDL, JFlash
T52C0 000:011.384   USB speed mode: High speed (480 MBit/s)
T52C0 000:011.696   TELNET listener socket opened on port 19021
T52C0 000:011.753   WEBSRV WEBSRV_Init(): Starting webserver thread(s)
T52C0 000:011.817   WEBSRV Webserver running on local port 19080
T52C0 000:014.029 - 7.616ms returns "O.K."
T52C0 000:014.045 JLINK_GetEmuCaps()
T52C0 000:014.048 - 0.004ms returns 0xB9FF7BBF
T52C0 000:014.056 JLINK_TIF_GetAvailable(...)
T52C0 000:014.228 - 0.176ms
T52C0 000:014.237 JLINK_SetErrorOutHandler(...)
T52C0 000:014.240 - 0.004ms
T52C0 000:014.256 JLINK_ExecCommand("ProjectFile = "D:\Users\Administrator\Desktop\STM32F411_USBDISK+FATFS_other\MDK-ARM\JLinkSettings.ini"", ...). 
T52C0 000:022.654 - 8.402ms returns 0x00
T52C0 000:022.730 JLINK_ExecCommand("Device = STM32F411CEUx", ...). 
T52C0 000:023.008   Device "STM32F411CE" selected.
T52C0 000:023.118 - 0.385ms returns 0x00
T52C0 000:023.124 JLINK_ExecCommand("DisableConnectionTimeout", ...). 
T52C0 000:023.129 - 0.002ms returns 0x01
T52C0 000:023.133 JLINK_GetHardwareVersion()
T52C0 000:023.136 - 0.004ms returns 110000
T52C0 000:023.141 JLINK_GetDLLVersion()
T52C0 000:023.143 - 0.004ms returns 78200
T52C0 000:023.147 JLINK_GetOEMString(...)
T52C0 000:023.150 JLINK_GetFirmwareString(...)
T52C0 000:023.153 - 0.004ms
T52C0 000:023.184 JLINK_GetDLLVersion()
T52C0 000:023.186 - 0.004ms returns 78200
T52C0 000:023.190 JLINK_GetCompileDateTime()
T52C0 000:023.193 - 0.004ms
T52C0 000:023.205 JLINK_GetFirmwareString(...)
T52C0 000:023.208 - 0.004ms
T52C0 000:023.219 JLINK_GetHardwareVersion()
T52C0 000:023.222 - 0.004ms returns 110000
T52C0 000:023.234 JLINK_GetSN()
T52C0 000:023.237 - 0.004ms returns 250710764
T52C0 000:023.248 JLINK_GetOEMString(...)
T52C0 000:023.268 JLINK_TIF_Select(JLINKARM_TIF_SWD)
T52C0 000:023.995 - 0.729ms returns 0x00
T52C0 000:024.000 JLINK_HasError()
T52C0 000:024.014 JLINK_SetSpeed(5000)
T52C0 000:024.208 - 0.196ms
T52C0 000:024.213 JLINK_GetId()
T52C0 000:024.443   InitTarget() start
T52C0 000:024.450    J-Link Script File: Executing InitTarget()
T52C0 000:031.809   InitTarget() end
T52C0 000:032.378   Found SW-DP with ID 0x2BA01477
T52C0 000:033.899   DPIDR: 0x2BA01477
T52C0 000:033.913   CoreSight SoC-400 or earlier
T52C0 000:033.926   Scanning AP map to find all available APs
T52C0 000:034.348   AP[1]: Stopped AP scan as end of AP map has been reached
T52C0 000:034.360   AP[0]: AHB-AP (IDR: 0x24770011)
T52C0 000:034.373   Iterating through AP map to find AHB-AP to use
T52C0 000:034.874   AP[0]: Core found
T52C0 000:034.887   AP[0]: AHB-AP ROM base: 0xE00FF000
T52C0 000:035.116   CPUID register: 0x410FC241. Implementer code: 0x41 (ARM)
T52C0 000:035.131   Found Cortex-M4 r0p1, Little endian.
T52C0 000:035.511   -- Max. mem block: 0x00004E30
T52C0 000:035.646   CPU_ReadMem(4 bytes @ 0xE000EDF0)
T52C0 000:035.965   CPU_ReadMem(4 bytes @ 0xE0002000)
T52C0 000:036.223   FPUnit: 6 code (BP) slots and 2 literal slots
T52C0 000:036.228   CPU_ReadMem(4 bytes @ 0xE000EDFC)
T52C0 000:036.487   CPU_WriteMem(4 bytes @ 0xE000EDFC)
T52C0 000:036.737   CPU_ReadMem(4 bytes @ 0xE0001000)
T52C0 000:036.988   CPU_WriteMem(4 bytes @ 0xE0001000)
T52C0 000:037.237   CPU_ReadMem(4 bytes @ 0xE000ED88)
T52C0 000:037.459   CPU_WriteMem(4 bytes @ 0xE000ED88)
T52C0 000:037.737   CPU_ReadMem(4 bytes @ 0xE000ED88)
T52C0 000:037.987   CPU_WriteMem(4 bytes @ 0xE000ED88)
T52C0 000:038.250   CoreSight components:
T52C0 000:038.300   ROMTbl[0] @ E00FF000
T52C0 000:038.305   CPU_ReadMem(64 bytes @ 0xE00FF000)
T52C0 000:038.706   CPU_ReadMem(32 bytes @ 0xE000EFE0)
T52C0 000:039.023   [0][0]: E000E000 CID B105E00D PID 000BB00C SCS-M7
T52C0 000:039.028   CPU_ReadMem(32 bytes @ 0xE0001FE0)
T52C0 000:039.342   [0][1]: E0001000 CID B105E00D PID 003BB002 DWT
T52C0 000:039.347   CPU_ReadMem(32 bytes @ 0xE0002FE0)
T52C0 000:039.650   [0][2]: E0002000 CID B105E00D PID 002BB003 FPB
T52C0 000:039.655   CPU_ReadMem(32 bytes @ 0xE0000FE0)
T52C0 000:039.971   [0][3]: E0000000 CID B105E00D PID 003BB001 ITM
T52C0 000:039.976   CPU_ReadMem(32 bytes @ 0xE0040FE0)
T52C0 000:040.296   [0][4]: E0040000 CID B105900D PID 000BB9A1 TPIU
T52C0 000:040.301   CPU_ReadMem(32 bytes @ 0xE0041FE0)
T52C0 000:040.625   [0][5]: E0041000 CID B105900D PID 000BB925 ETM
T52C0 000:040.794 - 16.582ms returns 0x2BA01477
T52C0 000:040.802 JLINK_GetDLLVersion()
T52C0 000:040.805 - 0.004ms returns 78200
T52C0 000:040.835 JLINK_CORE_GetFound()
T52C0 000:040.839 - 0.004ms returns 0xE0000FF
T52C0 000:040.843 JLINK_GetDebugInfo(0x100 = JLINKARM_ROM_TABLE_ADDR_INDEX)
T52C0 000:040.849   Value=0xE00FF000
T52C0 000:040.854 - 0.012ms returns 0
T52C0 000:040.871 JLINK_GetDebugInfo(0x100 = JLINKARM_ROM_TABLE_ADDR_INDEX)
T52C0 000:040.874   Value=0xE00FF000
T52C0 000:040.878 - 0.008ms returns 0
T52C0 000:040.882 JLINK_GetDebugInfo(0x101 = JLINKARM_DEBUG_INFO_ETM_ADDR_INDEX)
T52C0 000:040.885   Value=0xE0041000
T52C0 000:040.889 - 0.008ms returns 0
T52C0 000:040.895 JLINK_ReadMemEx(0xE0041FD0, 0x20 Bytes, Flags = 0x02000004)
T52C0 000:040.913   CPU_ReadMem(32 bytes @ 0xE0041FD0)
T52C0 000:041.188   Data:  04 00 00 00 00 00 00 00 00 00 00 00 00 00 00 00 ...
T52C0 000:041.192 - 0.298ms returns 32 (0x20)
T52C0 000:041.197 JLINK_GetDebugInfo(0x102 = JLINKARM_DEBUG_INFO_MTB_ADDR_INDEX)
T52C0 000:041.200   Value=0x00000000
T52C0 000:041.204 - 0.008ms returns 0
T52C0 000:041.207 JLINK_GetDebugInfo(0x103 = JLINKARM_DEBUG_INFO_TPIU_ADDR_INDEX)
T52C0 000:041.210   Value=0xE0040000
T52C0 000:041.214 - 0.008ms returns 0
T52C0 000:041.217 JLINK_GetDebugInfo(0x104 = JLINKARM_DEBUG_INFO_ITM_ADDR_INDEX)
T52C0 000:041.220   Value=0xE0000000
T52C0 000:041.224 - 0.008ms returns 0
T52C0 000:041.227 JLINK_GetDebugInfo(0x105 = JLINKARM_DEBUG_INFO_DWT_ADDR_INDEX)
T52C0 000:041.230   Value=0xE0001000
T52C0 000:041.234 - 0.008ms returns 0
T52C0 000:041.238 JLINK_GetDebugInfo(0x106 = JLINKARM_DEBUG_INFO_FPB_ADDR_INDEX)
T52C0 000:041.240   Value=0xE0002000
T52C0 000:041.244 - 0.008ms returns 0
T52C0 000:041.248 JLINK_GetDebugInfo(0x107 = JLINKARM_DEBUG_INFO_NVIC_ADDR_INDEX)
T52C0 000:041.250   Value=0xE000E000
T52C0 000:041.254 - 0.007ms returns 0
T52C0 000:041.258 JLINK_GetDebugInfo(0x10C = JLINKARM_DEBUG_INFO_DBG_ADDR_INDEX)
T52C0 000:041.260   Value=0xE000EDF0
T52C0 000:041.264 - 0.008ms returns 0
T52C0 000:041.268 JLINK_GetDebugInfo(0x01 = Unknown)
T52C0 000:041.273   Value=0x00000001
T52C0 000:041.277 - 0.010ms returns 0
T52C0 000:041.280 JLINK_ReadMemU32(0xE000ED00, 0x1 Items)
T52C0 000:041.285   CPU_ReadMem(4 bytes @ 0xE000ED00)
T52C0 000:041.470   Data:  41 C2 0F 41
T52C0 000:041.479   Debug reg: CPUID
T52C0 000:041.483 - 0.203ms returns 1 (0x1)
T52C0 000:041.488 JLINK_GetDebugInfo(0x10F = JLINKARM_DEBUG_INFO_HAS_CORTEX_M_SECURITY_EXT_INDEX)
T52C0 000:041.492   Value=0x00000000
T52C0 000:041.496 - 0.008ms returns 0
T52C0 000:041.500 JLINK_HasError()
T52C0 000:041.503 JLINK_SetResetType(JLINKARM_CM3_RESET_TYPE_NORMAL)
T52C0 000:041.506 - 0.004ms returns JLINKARM_CM3_RESET_TYPE_NORMAL
T52C0 000:041.510 JLINK_Reset()
T52C0 000:041.529   CPU is running
T52C0 000:041.535   CPU_WriteMem(4 bytes @ 0xE000EDF0)
T52C0 000:041.738   CPU is running
T52C0 000:041.743   CPU_WriteMem(4 bytes @ 0xE000EDFC)
T52C0 000:042.012   Reset: Halt core after reset via DEMCR.VC_CORERESET.
T52C0 000:042.419   Reset: Reset device via AIRCR.SYSRESETREQ.
T52C0 000:042.424   CPU is running
T52C0 000:042.428   CPU_WriteMem(4 bytes @ 0xE000ED0C)
T52C0 000:095.600   CPU_ReadMem(4 bytes @ 0xE000EDF0)
T52C0 000:095.962   CPU_ReadMem(4 bytes @ 0xE000EDF0)
T52C0 000:096.284   CPU is running
T52C0 000:096.293   CPU_WriteMem(4 bytes @ 0xE000EDF0)
T52C0 000:096.612   CPU is running
T52C0 000:096.617   CPU_WriteMem(4 bytes @ 0xE000EDFC)
T52C0 000:102.477   CPU_ReadMem(4 bytes @ 0xE000EDF0)
T52C0 000:104.496   CPU_WriteMem(4 bytes @ 0xE0002000)
T52C0 000:104.738   CPU_ReadMem(4 bytes @ 0xE000EDFC)
T52C0 000:104.997   CPU_ReadMem(4 bytes @ 0xE0001000)
T52C0 000:105.242 - 63.733ms
T52C0 000:105.252 JLINK_HasError()
T52C0 000:105.280 JLINK_ReadReg(R15 (PC))
T52C0 000:105.288 - 0.010ms returns 0x08000270
T52C0 000:105.292 JLINK_ReadReg(XPSR)
T52C0 000:105.296 - 0.004ms returns 0x01000000
T52C0 000:105.300 JLINK_Halt()
T52C0 000:105.303 - 0.004ms returns 0x00
T52C0 000:105.306 JLINK_ReadMemU32(0xE000EDF0, 0x1 Items)
T52C0 000:105.312   CPU_ReadMem(4 bytes @ 0xE000EDF0)
T52C0 000:105.512   Data:  03 00 03 00
T52C0 000:105.517   Debug reg: DHCSR
T52C0 000:105.520 - 0.215ms returns 1 (0x1)
T52C0 000:105.528 JLINK_WriteU32_64(0xE000EDF0, 0xA05F0003)
T52C0 000:105.532   Debug reg: DHCSR
T52C0 000:105.710   CPU_WriteMem(4 bytes @ 0xE000EDF0)
T52C0 000:105.993 - 0.466ms returns 0 (0x00000000)
T52C0 000:105.998 JLINK_WriteU32_64(0xE000EDFC, 0x01000000)
T52C0 000:106.002   Debug reg: DEMCR
T52C0 000:106.009   CPU_WriteMem(4 bytes @ 0xE000EDFC)
T52C0 000:106.241 - 0.244ms returns 0 (0x00000000)
T52C0 000:106.309 JLINK_GetHWStatus(...)
T52C0 000:106.490 - 0.183ms returns 0
T52C0 000:106.525 JLINK_GetNumBPUnits(Type = 0xFFFFFF00)
T52C0 000:106.528 - 0.005ms returns 0x06
T52C0 000:106.532 JLINK_GetNumBPUnits(Type = 0xF0)
T52C0 000:106.535 - 0.004ms returns 0x2000
T52C0 000:106.538 JLINK_GetNumWPUnits()
T52C0 000:106.541 - 0.004ms returns 4
T52C0 000:106.568 JLINK_GetSpeed()
T52C0 000:106.571 - 0.004ms returns 5000
T52C0 000:106.590 JLINK_ReadMemU32(0xE000E004, 0x1 Items)
T52C0 000:106.596   CPU_ReadMem(4 bytes @ 0xE000E004)
T52C0 000:106.814   Data:  02 00 00 00
T52C0 000:106.819 - 0.229ms returns 1 (0x1)
T52C0 000:106.823 JLINK_ReadMemU32(0xE000E004, 0x1 Items)
T52C0 000:106.827   CPU_ReadMem(4 bytes @ 0xE000E004)
T52C0 000:107.039   Data:  02 00 00 00
T52C0 000:107.044 - 0.222ms returns 1 (0x1)
T52C0 000:107.048 JLINK_WriteMemEx(0xE0001000, 0x0000001C Bytes, Flags = 0x02000004)
T52C0 000:107.051   Data:  01 00 00 00 00 00 00 00 00 00 00 00 00 00 00 00 ...
T52C0 000:107.058   CPU_WriteMem(28 bytes @ 0xE0001000)
T52C0 000:107.362 - 0.315ms returns 0x1C
T52C0 000:107.367 JLINK_HasError()
T52C0 000:107.371 JLINK_ReadReg(R15 (PC))
T52C0 000:107.375 - 0.005ms returns 0x08000270
T52C0 000:107.378 JLINK_ReadReg(XPSR)
T52C0 000:107.381 - 0.004ms returns 0x01000000
T52C0 000:109.203 JLINK_ReadMemEx(0xE0001004, 0x4 Bytes, Flags = 0x02000000)
T52C0 000:109.212   Data:  00 00 00 00
T52C0 000:109.216   Debug reg: DWT_CYCCNT
T52C0 000:109.220 - 0.017ms returns 4 (0x4)
T52C0 000:195.397 JLINK_HasError()
T52C0 000:195.411 JLINK_SetResetType(JLINKARM_CM3_RESET_TYPE_NORMAL)
T52C0 000:195.415 - 0.005ms returns JLINKARM_CM3_RESET_TYPE_NORMAL
T52C0 000:195.420 JLINK_Reset()
T52C0 000:195.434   CPU_WriteMem(4 bytes @ 0xE000EDF0)
T52C0 000:195.667   CPU_WriteMem(4 bytes @ 0xE000EDFC)
T52C0 000:195.907   Reset: Halt core after reset via DEMCR.VC_CORERESET.
T52C0 000:196.297   Reset: Reset device via AIRCR.SYSRESETREQ.
T52C0 000:196.303   CPU_WriteMem(4 bytes @ 0xE000ED0C)
T52C0 000:249.414   CPU_ReadMem(4 bytes @ 0xE000EDF0)
T52C0 000:249.738   CPU_ReadMem(4 bytes @ 0xE000EDF0)
T52C0 000:249.959   CPU_WriteMem(4 bytes @ 0xE000EDF0)
T52C0 000:250.238   CPU_WriteMem(4 bytes @ 0xE000EDFC)
T52C0 000:256.259   CPU_ReadMem(4 bytes @ 0xE000EDF0)
T52C0 000:258.167   CPU_WriteMem(4 bytes @ 0xE0002000)
T52C0 000:258.384   CPU_ReadMem(4 bytes @ 0xE000EDFC)
T52C0 000:258.613   CPU_ReadMem(4 bytes @ 0xE0001000)
T52C0 000:258.834 - 63.416ms
T52C0 000:258.882 JLINK_HasError()
T52C0 000:258.887 JLINK_ReadReg(R15 (PC))
T52C0 000:258.892 - 0.006ms returns 0x08000270
T52C0 000:258.899 JLINK_ReadReg(XPSR)
T52C0 000:258.903 - 0.006ms returns 0x01000000
T52C0 000:259.119 JLINK_ReadMemEx(0x08000270, 0x3C Bytes, Flags = 0x02000000)
T52C0 000:259.129   CPU_ReadMem(128 bytes @ 0x08000240)
T52C0 000:259.710    -- Updating C cache (128 bytes @ 0x08000240)
T52C0 000:259.715    -- Read from C cache (60 bytes @ 0x08000270)
T52C0 000:259.720   Data:  06 48 80 47 06 48 00 47 FE E7 FE E7 FE E7 FE E7 ...
T52C0 000:259.724 - 0.606ms returns 60 (0x3C)
T52C0 000:259.729 JLINK_ReadMemEx(0x08000270, 0x2 Bytes, Flags = 0x02000000)
T52C0 000:259.733    -- Read from C cache (2 bytes @ 0x08000270)
T52C0 000:259.737   Data:  06 48
T52C0 000:259.741 - 0.013ms returns 2 (0x2)
T52C0 000:259.790 JLINK_ReadMemEx(0x08000272, 0x2 Bytes, Flags = 0x02000000)
T52C0 000:259.793    -- Read from C cache (2 bytes @ 0x08000272)
T52C0 000:259.797   Data:  80 47
T52C0 000:259.801 - 0.012ms returns 2 (0x2)
T52C0 001:530.649 JLINK_HasError()
T52C0 001:530.660 JLINK_ReadReg(R0)
T52C0 001:530.911 - 0.257ms returns 0x00000000
T52C0 001:530.923 JLINK_ReadReg(R1)
T52C0 001:530.927 - 0.005ms returns 0x00000000
T52C0 001:530.931 JLINK_ReadReg(R2)
T52C0 001:530.934 - 0.004ms returns 0x00000000
T52C0 001:530.937 JLINK_ReadReg(R3)
T52C0 001:530.940 - 0.004ms returns 0x00000000
T52C0 001:530.944 JLINK_ReadReg(R4)
T52C0 001:530.947 - 0.004ms returns 0x00000000
T52C0 001:530.950 JLINK_ReadReg(R5)
T52C0 001:530.953 - 0.004ms returns 0x00000000
T52C0 001:530.957 JLINK_ReadReg(R6)
T52C0 001:530.960 - 0.004ms returns 0x00000000
T52C0 001:530.963 JLINK_ReadReg(R7)
T52C0 001:530.966 - 0.004ms returns 0x00000000
T52C0 001:530.970 JLINK_ReadReg(R8)
T52C0 001:530.982 - 0.013ms returns 0x00000000
T52C0 001:530.986 JLINK_ReadReg(R9)
T52C0 001:530.989 - 0.004ms returns 0x00000000
T52C0 001:530.992 JLINK_ReadReg(R10)
T52C0 001:530.995 - 0.004ms returns 0x00000000
T52C0 001:530.999 JLINK_ReadReg(R11)
T52C0 001:531.001 - 0.004ms returns 0x00000000
T52C0 001:531.005 JLINK_ReadReg(R12)
T52C0 001:531.008 - 0.004ms returns 0x00000000
T52C0 001:531.011 JLINK_ReadReg(R13 (SP))
T52C0 001:531.015 - 0.004ms returns 0x20009F78
T52C0 001:531.018 JLINK_ReadReg(R14)
T52C0 001:531.021 - 0.004ms returns 0xFFFFFFFF
T52C0 001:531.025 JLINK_ReadReg(R15 (PC))
T52C0 001:531.028 - 0.004ms returns 0x08000270
T52C0 001:531.031 JLINK_ReadReg(XPSR)
T52C0 001:531.034 - 0.004ms returns 0x01000000
T52C0 001:531.038 JLINK_ReadReg(MSP)
T52C0 001:531.041 - 0.004ms returns 0x20009F78
T52C0 001:531.044 JLINK_ReadReg(PSP)
T52C0 001:531.047 - 0.004ms returns 0x00000000
T52C0 001:531.051 JLINK_ReadReg(CFBP)
T52C0 001:531.054 - 0.004ms returns 0x00000000
T52C0 001:531.057 JLINK_ReadReg(FPSCR)
T52C0 001:533.533 - 2.477ms returns 0x00000000
T52C0 001:533.538 JLINK_ReadReg(FPS0)
T52C0 001:533.541 - 0.004ms returns 0x00000000
T52C0 001:533.545 JLINK_ReadReg(FPS1)
T52C0 001:533.548 - 0.004ms returns 0x00000000
T52C0 001:533.552 JLINK_ReadReg(FPS2)
T52C0 001:533.555 - 0.004ms returns 0x00000000
T52C0 001:533.558 JLINK_ReadReg(FPS3)
T52C0 001:533.561 - 0.004ms returns 0x00000000
T52C0 001:533.565 JLINK_ReadReg(FPS4)
T52C0 001:533.568 - 0.004ms returns 0x00000000
T52C0 001:533.571 JLINK_ReadReg(FPS5)
T52C0 001:533.574 - 0.004ms returns 0x00000000
T52C0 001:533.578 JLINK_ReadReg(FPS6)
T52C0 001:533.580 - 0.004ms returns 0x00000000
T52C0 001:533.584 JLINK_ReadReg(FPS7)
T52C0 001:533.587 - 0.004ms returns 0x00000000
T52C0 001:533.590 JLINK_ReadReg(FPS8)
T52C0 001:533.593 - 0.004ms returns 0x00000000
T52C0 001:533.597 JLINK_ReadReg(FPS9)
T52C0 001:533.600 - 0.004ms returns 0x00000000
T52C0 001:533.603 JLINK_ReadReg(FPS10)
T52C0 001:533.606 - 0.004ms returns 0x00000000
T52C0 001:533.610 JLINK_ReadReg(FPS11)
T52C0 001:533.613 - 0.004ms returns 0x00000000
T52C0 001:533.616 JLINK_ReadReg(FPS12)
T52C0 001:533.619 - 0.004ms returns 0x00000000
T52C0 001:533.623 JLINK_ReadReg(FPS13)
T52C0 001:533.626 - 0.004ms returns 0x00000000
T52C0 001:533.629 JLINK_ReadReg(FPS14)
T52C0 001:533.632 - 0.004ms returns 0x00000000
T52C0 001:533.636 JLINK_ReadReg(FPS15)
T52C0 001:533.678 - 0.044ms returns 0x00000000
T52C0 001:533.682 JLINK_ReadReg(FPS16)
T52C0 001:533.686 - 0.005ms returns 0x00000000
T52C0 001:533.690 JLINK_ReadReg(FPS17)
T52C0 001:533.693 - 0.004ms returns 0x00000000
T52C0 001:533.697 JLINK_ReadReg(FPS18)
T52C0 001:533.700 - 0.004ms returns 0x00000000
T52C0 001:533.703 JLINK_ReadReg(FPS19)
T52C0 001:533.706 - 0.004ms returns 0x00000000
T52C0 001:533.709 JLINK_ReadReg(FPS20)
T52C0 001:533.712 - 0.004ms returns 0x00000000
T52C0 001:533.716 JLINK_ReadReg(FPS21)
T52C0 001:533.719 - 0.004ms returns 0x00000000
T52C0 001:533.722 JLINK_ReadReg(FPS22)
T52C0 001:533.725 - 0.004ms returns 0x00000000
T52C0 001:533.729 JLINK_ReadReg(FPS23)
T52C0 001:533.731 - 0.004ms returns 0x00000000
T52C0 001:533.735 JLINK_ReadReg(FPS24)
T52C0 001:533.738 - 0.004ms returns 0x00000000
T52C0 001:533.741 JLINK_ReadReg(FPS25)
T52C0 001:533.744 - 0.004ms returns 0x00000000
T52C0 001:533.748 JLINK_ReadReg(FPS26)
T52C0 001:533.751 - 0.004ms returns 0x00000000
T52C0 001:533.754 JLINK_ReadReg(FPS27)
T52C0 001:533.757 - 0.004ms returns 0x00000000
T52C0 001:533.761 JLINK_ReadReg(FPS28)
T52C0 001:533.764 - 0.004ms returns 0x00000000
T52C0 001:533.767 JLINK_ReadReg(FPS29)
T52C0 001:533.770 - 0.004ms returns 0x00000000
T52C0 001:533.773 JLINK_ReadReg(FPS30)
T52C0 001:533.776 - 0.004ms returns 0x00000000
T52C0 001:533.780 JLINK_ReadReg(FPS31)
T52C0 001:533.783 - 0.004ms returns 0x00000000
T4CB8 001:605.760 JLINK_ReadMemEx(0x08000270, 0x2 Bytes, Flags = 0x02000000)
T4CB8 001:605.783    -- Read from C cache (2 bytes @ 0x08000270)
T4CB8 001:605.791   Data:  06 48
T4CB8 001:605.798 - 0.040ms returns 2 (0x2)
T4CB8 001:605.804 JLINK_HasError()
T4CB8 001:605.812 JLINK_SetBPEx(Addr = 0x0800744E, Type = 0xFFFFFFF2)
T4CB8 001:605.833 - 0.023ms returns 0x00000001
T4CB8 001:605.838 JLINK_HasError()
T4CB8 001:605.844 JLINK_SetBPEx(Addr = 0x08004B34, Type = 0xFFFFFFF2)
T4CB8 001:605.849 - 0.007ms returns 0x00000002
T4CB8 001:605.855 JLINK_HasError()
T4CB8 001:605.860 JLINK_HasError()
T4CB8 001:605.866 JLINK_Go()
T4CB8 001:605.878   CPU_WriteMem(4 bytes @ 0xE0002000)
T4CB8 001:606.175   CPU_WriteMem(4 bytes @ 0xE0002000)
T4CB8 001:606.411   CPU_ReadMem(4 bytes @ 0xE0001000)
T4CB8 001:606.636   CPU_WriteMem(4 bytes @ 0xE0002008)
T4CB8 001:606.646   CPU_WriteMem(4 bytes @ 0xE000200C)
T4CB8 001:606.650   CPU_WriteMem(4 bytes @ 0xE0002010)
T4CB8 001:606.655   CPU_WriteMem(4 bytes @ 0xE0002014)
T4CB8 001:606.659   CPU_WriteMem(4 bytes @ 0xE0002018)
T4CB8 001:606.663   CPU_WriteMem(4 bytes @ 0xE000201C)
T4CB8 001:607.369   CPU_WriteMem(4 bytes @ 0xE0001004)
T4CB8 001:607.907 - 2.044ms
T4CB8 001:708.112 JLINK_HasError()
T4CB8 001:708.126 JLINK_IsHalted()
T4CB8 001:709.791 - 1.672ms returns TRUE
T4CB8 001:709.803 JLINK_HasError()
T4CB8 001:709.807 JLINK_Halt()
T4CB8 001:709.810 - 0.004ms returns 0x00
T4CB8 001:709.814 JLINK_IsHalted()
T4CB8 001:709.817 - 0.004ms returns TRUE
T4CB8 001:709.820 JLINK_IsHalted()
T4CB8 001:709.825 - 0.006ms returns TRUE
T4CB8 001:709.830 JLINK_IsHalted()
T4CB8 001:709.833 - 0.004ms returns TRUE
T4CB8 001:709.838 JLINK_HasError()
T4CB8 001:709.841 JLINK_ReadReg(R15 (PC))
T4CB8 001:709.846 - 0.006ms returns 0x0800744E
T4CB8 001:709.850 JLINK_ReadReg(XPSR)
T4CB8 001:709.853 - 0.004ms returns 0x61000000
T4CB8 001:709.859 JLINK_HasError()
T4CB8 001:709.863 JLINK_ClrBPEx(BPHandle = 0x00000001)
T4CB8 001:709.866 - 0.005ms returns 0x00
T4CB8 001:709.870 JLINK_HasError()
T4CB8 001:709.873 JLINK_ClrBPEx(BPHandle = 0x00000002)
T4CB8 001:709.876 - 0.004ms returns 0x00
T4CB8 001:709.880 JLINK_HasError()
T4CB8 001:709.883 JLINK_HasError()
T4CB8 001:709.887 JLINK_ReadMemU32(0xE000ED30, 0x1 Items)
T4CB8 001:709.894   CPU_ReadMem(4 bytes @ 0xE000ED30)
T4CB8 001:710.091   Data:  02 00 00 00
T4CB8 001:710.096 - 0.211ms returns 1 (0x1)
T4CB8 001:710.100 JLINK_ReadMemU32(0xE0001028, 0x1 Items)
T4CB8 001:710.105   CPU_ReadMem(4 bytes @ 0xE0001028)
T4CB8 001:710.280   Data:  00 00 00 00
T4CB8 001:710.284   Debug reg: DWT_FUNC[0]
T4CB8 001:710.292 - 0.193ms returns 1 (0x1)
T4CB8 001:710.296 JLINK_ReadMemU32(0xE0001038, 0x1 Items)
T4CB8 001:710.300   CPU_ReadMem(4 bytes @ 0xE0001038)
T4CB8 001:710.488   Data:  00 02 00 00
T4CB8 001:710.492   Debug reg: DWT_FUNC[1]
T4CB8 001:710.496 - 0.201ms returns 1 (0x1)
T4CB8 001:710.500 JLINK_ReadMemU32(0xE0001048, 0x1 Items)
T4CB8 001:710.504   CPU_ReadMem(4 bytes @ 0xE0001048)
T4CB8 001:710.706   Data:  00 00 00 00
T4CB8 001:710.711   Debug reg: DWT_FUNC[2]
T4CB8 001:710.715 - 0.215ms returns 1 (0x1)
T4CB8 001:710.719 JLINK_ReadMemU32(0xE0001058, 0x1 Items)
T4CB8 001:710.723   CPU_ReadMem(4 bytes @ 0xE0001058)
T4CB8 001:710.985   Data:  00 00 00 00
T4CB8 001:710.989   Debug reg: DWT_FUNC[3]
T4CB8 001:710.993 - 0.275ms returns 1 (0x1)
T4CB8 001:711.034 JLINK_HasError()
T4CB8 001:711.038 JLINK_ReadReg(R0)
T4CB8 001:711.041 - 0.004ms returns 0x0800744F
T4CB8 001:711.045 JLINK_ReadReg(R1)
T4CB8 001:711.048 - 0.004ms returns 0x20009F78
T4CB8 001:711.051 JLINK_ReadReg(R2)
T4CB8 001:711.054 - 0.004ms returns 0x00000000
T4CB8 001:711.058 JLINK_ReadReg(R3)
T4CB8 001:711.061 - 0.004ms returns 0x08005681
T4CB8 001:711.064 JLINK_ReadReg(R4)
T4CB8 001:711.067 - 0.004ms returns 0x08033C40
T4CB8 001:711.071 JLINK_ReadReg(R5)
T4CB8 001:711.074 - 0.004ms returns 0x08033C40
T4CB8 001:711.077 JLINK_ReadReg(R6)
T4CB8 001:711.080 - 0.004ms returns 0x00000000
T4CB8 001:711.083 JLINK_ReadReg(R7)
T4CB8 001:711.086 - 0.004ms returns 0x00000000
T4CB8 001:711.090 JLINK_ReadReg(R8)
T4CB8 001:711.093 - 0.004ms returns 0x00000000
T4CB8 001:711.096 JLINK_ReadReg(R9)
T4CB8 001:711.099 - 0.004ms returns 0x00000000
T4CB8 001:711.103 JLINK_ReadReg(R10)
T4CB8 001:711.106 - 0.004ms returns 0x00000000
T4CB8 001:711.109 JLINK_ReadReg(R11)
T4CB8 001:711.112 - 0.004ms returns 0x00000000
T4CB8 001:711.116 JLINK_ReadReg(R12)
T4CB8 001:711.118 - 0.004ms returns 0x00000000
T4CB8 001:711.122 JLINK_ReadReg(R13 (SP))
T4CB8 001:711.125 - 0.004ms returns 0x20009F78
T4CB8 001:711.129 JLINK_ReadReg(R14)
T4CB8 001:711.132 - 0.004ms returns 0x080003AD
T4CB8 001:711.135 JLINK_ReadReg(R15 (PC))
T4CB8 001:711.138 - 0.004ms returns 0x0800744E
T4CB8 001:711.142 JLINK_ReadReg(XPSR)
T4CB8 001:711.145 - 0.004ms returns 0x61000000
T4CB8 001:711.148 JLINK_ReadReg(MSP)
T4CB8 001:711.151 - 0.004ms returns 0x20009F78
T4CB8 001:711.155 JLINK_ReadReg(PSP)
T4CB8 001:711.157 - 0.004ms returns 0x00000000
T4CB8 001:711.161 JLINK_ReadReg(CFBP)
T4CB8 001:711.164 - 0.004ms returns 0x00000000
T4CB8 001:711.167 JLINK_ReadReg(FPSCR)
T4CB8 001:713.638 - 2.476ms returns 0x00000000
T4CB8 001:713.649 JLINK_ReadReg(FPS0)
T4CB8 001:713.654 - 0.006ms returns 0x00000000
T4CB8 001:713.658 JLINK_ReadReg(FPS1)
T4CB8 001:713.661 - 0.004ms returns 0x00000000
T4CB8 001:713.665 JLINK_ReadReg(FPS2)
T4CB8 001:713.668 - 0.004ms returns 0x00000000
T4CB8 001:713.671 JLINK_ReadReg(FPS3)
T4CB8 001:713.674 - 0.004ms returns 0x00000000
T4CB8 001:713.678 JLINK_ReadReg(FPS4)
T4CB8 001:713.681 - 0.004ms returns 0x00000000
T4CB8 001:713.684 JLINK_ReadReg(FPS5)
T4CB8 001:713.687 - 0.004ms returns 0x00000000
T4CB8 001:713.691 JLINK_ReadReg(FPS6)
T4CB8 001:713.694 - 0.004ms returns 0x00000000
T4CB8 001:713.697 JLINK_ReadReg(FPS7)
T4CB8 001:713.700 - 0.004ms returns 0x00000000
T4CB8 001:713.704 JLINK_ReadReg(FPS8)
T4CB8 001:713.707 - 0.004ms returns 0x00000000
T4CB8 001:713.710 JLINK_ReadReg(FPS9)
T4CB8 001:713.713 - 0.004ms returns 0x00000000
T4CB8 001:713.717 JLINK_ReadReg(FPS10)
T4CB8 001:713.720 - 0.004ms returns 0x00000000
T4CB8 001:713.723 JLINK_ReadReg(FPS11)
T4CB8 001:713.726 - 0.004ms returns 0x00000000
T4CB8 001:713.729 JLINK_ReadReg(FPS12)
T4CB8 001:713.732 - 0.004ms returns 0x00000000
T4CB8 001:713.736 JLINK_ReadReg(FPS13)
T4CB8 001:713.739 - 0.004ms returns 0x00000000
T4CB8 001:713.742 JLINK_ReadReg(FPS14)
T4CB8 001:713.745 - 0.004ms returns 0x00000000
T4CB8 001:713.749 JLINK_ReadReg(FPS15)
T4CB8 001:713.752 - 0.004ms returns 0x00000000
T4CB8 001:713.755 JLINK_ReadReg(FPS16)
T4CB8 001:713.758 - 0.006ms returns 0x00000000
T4CB8 001:713.765 JLINK_ReadReg(FPS17)
T4CB8 001:713.768 - 0.004ms returns 0x00000000
T4CB8 001:713.772 JLINK_ReadReg(FPS18)
T4CB8 001:713.775 - 0.004ms returns 0x00000000
T4CB8 001:713.778 JLINK_ReadReg(FPS19)
T4CB8 001:713.781 - 0.004ms returns 0x00000000
T4CB8 001:713.785 JLINK_ReadReg(FPS20)
T4CB8 001:713.788 - 0.004ms returns 0x00000000
T4CB8 001:713.791 JLINK_ReadReg(FPS21)
T4CB8 001:713.794 - 0.004ms returns 0x00000000
T4CB8 001:713.797 JLINK_ReadReg(FPS22)
T4CB8 001:713.800 - 0.004ms returns 0x00000000
T4CB8 001:713.804 JLINK_ReadReg(FPS23)
T4CB8 001:713.807 - 0.004ms returns 0x00000000
T4CB8 001:713.810 JLINK_ReadReg(FPS24)
T4CB8 001:713.813 - 0.004ms returns 0x00000000
T4CB8 001:713.817 JLINK_ReadReg(FPS25)
T4CB8 001:713.820 - 0.004ms returns 0x00000000
T4CB8 001:713.823 JLINK_ReadReg(FPS26)
T4CB8 001:713.826 - 0.004ms returns 0x00000000
T4CB8 001:713.830 JLINK_ReadReg(FPS27)
T4CB8 001:713.833 - 0.004ms returns 0x00000000
T4CB8 001:713.836 JLINK_ReadReg(FPS28)
T4CB8 001:713.839 - 0.004ms returns 0x00000000
T4CB8 001:713.843 JLINK_ReadReg(FPS29)
T4CB8 001:713.846 - 0.004ms returns 0x00000000
T4CB8 001:713.849 JLINK_ReadReg(FPS30)
T4CB8 001:713.852 - 0.004ms returns 0x00000000
T4CB8 001:713.856 JLINK_ReadReg(FPS31)
T4CB8 001:713.859 - 0.004ms returns 0x00000000
T4CB8 001:713.866 JLINK_ReadMemEx(0x200000CC, 0x4 Bytes, Flags = 0x02000000)
T4CB8 001:713.877   CPU_ReadMem(64 bytes @ 0x200000C0)
T4CB8 001:714.237    -- Updating C cache (64 bytes @ 0x200000C0)
T4CB8 001:714.242    -- Read from C cache (4 bytes @ 0x200000CC)
T4CB8 001:714.247   Data:  00 00 00 00
T4CB8 001:714.251 - 0.386ms returns 4 (0x4)
T52C0 001:715.607 JLINK_ReadMemEx(0xE000ED28, 0x4 Bytes, Flags = 0x02000000)
T52C0 001:715.619   CPU_ReadMem(4 bytes @ 0xE000ED28)
T52C0 001:715.795   Data:  00 00 00 00
T52C0 001:715.800 - 0.194ms returns 4 (0x4)
T4CB8 004:219.088 JLINK_ReadMemEx(0x0800744E, 0x2 Bytes, Flags = 0x02000000)
T4CB8 004:219.108   CPU_ReadMem(64 bytes @ 0x08007440)
T4CB8 004:219.528    -- Updating C cache (64 bytes @ 0x08007440)
T4CB8 004:219.534    -- Read from C cache (2 bytes @ 0x0800744E)
T4CB8 004:219.538   Data:  F9 F7
T4CB8 004:219.543 - 0.456ms returns 2 (0x2)
T4CB8 004:219.551 JLINK_HasError()
T4CB8 004:219.580 JLINK_SetBPEx(Addr = 0x08004B34, Type = 0xFFFFFFF2)
T4CB8 004:219.593 - 0.015ms returns 0x00000003
T4CB8 004:219.598 JLINK_HasError()
T4CB8 004:219.602 JLINK_HasError()
T4CB8 004:219.606 JLINK_Go()
T4CB8 004:219.813   CPU_WriteMem(4 bytes @ 0xE0002000)
T4CB8 004:220.014   CPU_ReadMem(4 bytes @ 0xE0001000)
T4CB8 004:220.231   CPU_WriteMem(4 bytes @ 0xE0002008)
T4CB8 004:220.236   CPU_WriteMem(4 bytes @ 0xE000200C)
T4CB8 004:220.860 - 1.255ms
T4CB8 004:320.976 JLINK_HasError()
T4CB8 004:320.992 JLINK_IsHalted()
T4CB8 004:321.284 - 0.297ms returns FALSE
T4CB8 004:421.526 JLINK_HasError()
T4CB8 004:421.551 JLINK_IsHalted()
T4CB8 004:421.900 - 0.354ms returns FALSE
T4CB8 004:522.444 JLINK_HasError()
T4CB8 004:522.457 JLINK_IsHalted()
T4CB8 004:522.736 - 0.281ms returns FALSE
T4CB8 004:623.638 JLINK_HasError()
T4CB8 004:623.650 JLINK_IsHalted()
T4CB8 004:624.052 - 0.407ms returns FALSE
T4CB8 004:724.430 JLINK_HasError()
T4CB8 004:724.443 JLINK_IsHalted()
T4CB8 004:724.728 - 0.291ms returns FALSE
T4CB8 004:825.607 JLINK_HasError()
T4CB8 004:825.621 JLINK_IsHalted()
T4CB8 004:825.903 - 0.287ms returns FALSE
T4CB8 004:926.013 JLINK_HasError()
T4CB8 004:926.038 JLINK_IsHalted()
T4CB8 004:926.282 - 0.246ms returns FALSE
T4CB8 005:026.653 JLINK_HasError()
T4CB8 005:026.664 JLINK_IsHalted()
T4CB8 005:028.439 - 1.778ms returns TRUE
T4CB8 005:028.446 JLINK_HasError()
T4CB8 005:028.451 JLINK_Halt()
T4CB8 005:028.453 - 0.004ms returns 0x00
T4CB8 005:028.457 JLINK_IsHalted()
T4CB8 005:028.460 - 0.004ms returns TRUE
T4CB8 005:028.463 JLINK_IsHalted()
T4CB8 005:028.466 - 0.003ms returns TRUE
T4CB8 005:028.469 JLINK_IsHalted()
T4CB8 005:028.471 - 0.003ms returns TRUE
T4CB8 005:028.475 JLINK_HasError()
T4CB8 005:028.479 JLINK_ReadReg(R15 (PC))
T4CB8 005:028.487 - 0.009ms returns 0x08004B34
T4CB8 005:028.491 JLINK_ReadReg(XPSR)
T4CB8 005:028.494 - 0.004ms returns 0x41000000
T4CB8 005:028.499 JLINK_HasError()
T4CB8 005:028.503 JLINK_ClrBPEx(BPHandle = 0x00000003)
T4CB8 005:028.506 - 0.004ms returns 0x00
T4CB8 005:028.509 JLINK_HasError()
T4CB8 005:028.513 JLINK_HasError()
T4CB8 005:028.516 JLINK_ReadMemU32(0xE000ED30, 0x1 Items)
T4CB8 005:028.523   CPU_ReadMem(4 bytes @ 0xE000ED30)
T4CB8 005:028.870   Data:  02 00 00 00
T4CB8 005:028.879 - 0.364ms returns 1 (0x1)
T4CB8 005:028.885 JLINK_ReadMemU32(0xE0001028, 0x1 Items)
T4CB8 005:028.893   CPU_ReadMem(4 bytes @ 0xE0001028)
T4CB8 005:029.173   Data:  00 00 00 00
T4CB8 005:029.182   Debug reg: DWT_FUNC[0]
T4CB8 005:029.186 - 0.303ms returns 1 (0x1)
T4CB8 005:029.192 JLINK_ReadMemU32(0xE0001038, 0x1 Items)
T4CB8 005:029.200   CPU_ReadMem(4 bytes @ 0xE0001038)
T4CB8 005:029.424   Data:  00 02 00 00
T4CB8 005:029.433   Debug reg: DWT_FUNC[1]
T4CB8 005:029.437 - 0.246ms returns 1 (0x1)
T4CB8 005:029.443 JLINK_ReadMemU32(0xE0001048, 0x1 Items)
T4CB8 005:029.450   CPU_ReadMem(4 bytes @ 0xE0001048)
T4CB8 005:029.676   Data:  00 00 00 00
T4CB8 005:029.685   Debug reg: DWT_FUNC[2]
T4CB8 005:029.689 - 0.247ms returns 1 (0x1)
T4CB8 005:029.694 JLINK_ReadMemU32(0xE0001058, 0x1 Items)
T4CB8 005:029.702   CPU_ReadMem(4 bytes @ 0xE0001058)
T4CB8 005:029.924   Data:  00 00 00 00
T4CB8 005:029.933   Debug reg: DWT_FUNC[3]
T4CB8 005:029.937 - 0.244ms returns 1 (0x1)
T4CB8 005:029.993 JLINK_HasError()
T4CB8 005:029.998 JLINK_ReadReg(R0)
T4CB8 005:030.004 - 0.007ms returns 0x00000000
T4CB8 005:030.008 JLINK_ReadReg(R1)
T4CB8 005:030.011 - 0.004ms returns 0x20000000
T4CB8 005:030.014 JLINK_ReadReg(R2)
T4CB8 005:030.017 - 0.004ms returns 0x00000001
T4CB8 005:030.021 JLINK_ReadReg(R3)
T4CB8 005:030.024 - 0.004ms returns 0x0000EF16
T4CB8 005:030.027 JLINK_ReadReg(R4)
T4CB8 005:030.030 - 0.004ms returns 0x200001EC
T4CB8 005:030.033 JLINK_ReadReg(R5)
T4CB8 005:030.036 - 0.004ms returns 0x00000000
T4CB8 005:030.040 JLINK_ReadReg(R6)
T4CB8 005:030.043 - 0.004ms returns 0x00000000
T4CB8 005:030.046 JLINK_ReadReg(R7)
T4CB8 005:030.049 - 0.004ms returns 0x00000000
T4CB8 005:030.053 JLINK_ReadReg(R8)
T4CB8 005:030.055 - 0.004ms returns 0x00000000
T4CB8 005:030.059 JLINK_ReadReg(R9)
T4CB8 005:030.062 - 0.004ms returns 0x00000000
T4CB8 005:030.065 JLINK_ReadReg(R10)
T4CB8 005:030.068 - 0.004ms returns 0x00000000
T4CB8 005:030.072 JLINK_ReadReg(R11)
T4CB8 005:030.075 - 0.004ms returns 0x00000000
T4CB8 005:030.078 JLINK_ReadReg(R12)
T4CB8 005:030.081 - 0.004ms returns 0x82800000
T4CB8 005:030.084 JLINK_ReadReg(R13 (SP))
T4CB8 005:030.088 - 0.004ms returns 0x200046A0
T4CB8 005:030.091 JLINK_ReadReg(R14)
T4CB8 005:030.094 - 0.004ms returns 0x080051BD
T4CB8 005:030.097 JLINK_ReadReg(R15 (PC))
T4CB8 005:030.100 - 0.004ms returns 0x08004B34
T4CB8 005:030.104 JLINK_ReadReg(XPSR)
T4CB8 005:030.107 - 0.004ms returns 0x41000000
T4CB8 005:030.110 JLINK_ReadReg(MSP)
T4CB8 005:030.113 - 0.004ms returns 0x20009F58
T4CB8 005:030.117 JLINK_ReadReg(PSP)
T4CB8 005:030.120 - 0.004ms returns 0x200046A0
T4CB8 005:030.123 JLINK_ReadReg(CFBP)
T4CB8 005:030.126 - 0.004ms returns 0x06000000
T4CB8 005:030.130 JLINK_ReadReg(FPSCR)
T4CB8 005:032.577 - 2.449ms returns 0x20000010
T4CB8 005:032.582 JLINK_ReadReg(FPS0)
T4CB8 005:032.586 - 0.004ms returns 0x00000008
T4CB8 005:032.589 JLINK_ReadReg(FPS1)
T4CB8 005:032.592 - 0.004ms returns 0x3F800000
T4CB8 005:032.596 JLINK_ReadReg(FPS2)
T4CB8 005:032.599 - 0.004ms returns 0x3F800000
T4CB8 005:032.602 JLINK_ReadReg(FPS3)
T4CB8 005:032.605 - 0.004ms returns 0x3F800000
T4CB8 005:032.608 JLINK_ReadReg(FPS4)
T4CB8 005:032.611 - 0.004ms returns 0x00000000
T4CB8 005:032.615 JLINK_ReadReg(FPS5)
T4CB8 005:032.618 - 0.004ms returns 0x41800000
T4CB8 005:032.621 JLINK_ReadReg(FPS6)
T4CB8 005:032.624 - 0.004ms returns 0x00000000
T4CB8 005:032.627 JLINK_ReadReg(FPS7)
T4CB8 005:032.630 - 0.004ms returns 0x3E4CE27E
T4CB8 005:032.634 JLINK_ReadReg(FPS8)
T4CB8 005:032.674 - 0.042ms returns 0x00000000
T4CB8 005:032.678 JLINK_ReadReg(FPS9)
T4CB8 005:032.681 - 0.004ms returns 0x00000000
T4CB8 005:032.684 JLINK_ReadReg(FPS10)
T4CB8 005:032.687 - 0.004ms returns 0x00000000
T4CB8 005:032.691 JLINK_ReadReg(FPS11)
T4CB8 005:032.694 - 0.004ms returns 0x00000000
T4CB8 005:032.697 JLINK_ReadReg(FPS12)
T4CB8 005:032.700 - 0.004ms returns 0x00000000
T4CB8 005:032.703 JLINK_ReadReg(FPS13)
T4CB8 005:032.706 - 0.004ms returns 0x00000000
T4CB8 005:032.710 JLINK_ReadReg(FPS14)
T4CB8 005:032.713 - 0.004ms returns 0x00000000
T4CB8 005:032.716 JLINK_ReadReg(FPS15)
T4CB8 005:032.719 - 0.004ms returns 0x00000000
T4CB8 005:032.722 JLINK_ReadReg(FPS16)
T4CB8 005:032.725 - 0.004ms returns 0x00000000
T4CB8 005:032.729 JLINK_ReadReg(FPS17)
T4CB8 005:032.732 - 0.004ms returns 0x00000000
T4CB8 005:032.735 JLINK_ReadReg(FPS18)
T4CB8 005:032.738 - 0.004ms returns 0x00000000
T4CB8 005:032.741 JLINK_ReadReg(FPS19)
T4CB8 005:032.744 - 0.004ms returns 0x00000000
T4CB8 005:032.748 JLINK_ReadReg(FPS20)
T4CB8 005:032.751 - 0.004ms returns 0x00000000
T4CB8 005:032.754 JLINK_ReadReg(FPS21)
T4CB8 005:032.757 - 0.004ms returns 0x00000000
T4CB8 005:032.760 JLINK_ReadReg(FPS22)
T4CB8 005:032.763 - 0.004ms returns 0x00000000
T4CB8 005:032.767 JLINK_ReadReg(FPS23)
T4CB8 005:032.769 - 0.004ms returns 0x00000000
T4CB8 005:032.773 JLINK_ReadReg(FPS24)
T4CB8 005:032.776 - 0.004ms returns 0x00000000
T4CB8 005:032.779 JLINK_ReadReg(FPS25)
T4CB8 005:032.782 - 0.004ms returns 0x00000000
T4CB8 005:032.786 JLINK_ReadReg(FPS26)
T4CB8 005:032.789 - 0.004ms returns 0x00000000
T4CB8 005:032.792 JLINK_ReadReg(FPS27)
T4CB8 005:032.795 - 0.004ms returns 0x00000000
T4CB8 005:032.798 JLINK_ReadReg(FPS28)
T4CB8 005:032.801 - 0.004ms returns 0x00000000
T4CB8 005:032.804 JLINK_ReadReg(FPS29)
T4CB8 005:032.807 - 0.004ms returns 0x00000000
T4CB8 005:032.811 JLINK_ReadReg(FPS30)
T4CB8 005:032.814 - 0.004ms returns 0x00000000
T4CB8 005:032.817 JLINK_ReadReg(FPS31)
T4CB8 005:032.820 - 0.004ms returns 0x00000000
T4CB8 005:032.826 JLINK_ReadMemEx(0x200000CC, 0x4 Bytes, Flags = 0x02000000)
T4CB8 005:032.834   CPU_ReadMem(64 bytes @ 0x200000C0)
T4CB8 005:033.180    -- Updating C cache (64 bytes @ 0x200000C0)
T4CB8 005:033.185    -- Read from C cache (4 bytes @ 0x200000CC)
T4CB8 005:033.189   Data:  02 00 00 00
T4CB8 005:033.193 - 0.368ms returns 4 (0x4)
T4CB8 005:033.198 JLINK_ReadMemEx(0x200000BC, 0x4 Bytes, Flags = 0x02000000)
T4CB8 005:033.202   CPU_ReadMem(64 bytes @ 0x20000080)
T4CB8 005:033.553    -- Updating C cache (64 bytes @ 0x20000080)
T4CB8 005:033.558    -- Read from C cache (4 bytes @ 0x200000BC)
T4CB8 005:033.562   Data:  88 47 00 20
T4CB8 005:033.566 - 0.369ms returns 4 (0x4)
T52C0 005:033.712 JLINK_ReadMemEx(0x200046A4, 0x4 Bytes, Flags = 0x02000000)
T52C0 005:033.726   CPU_ReadMem(64 bytes @ 0x20004680)
T52C0 005:034.078    -- Updating C cache (64 bytes @ 0x20004680)
T52C0 005:034.083    -- Read from C cache (4 bytes @ 0x200046A4)
T52C0 005:034.088   Data:  87 62 00 08
T52C0 005:034.092 - 0.381ms returns 4 (0x4)
T52C0 005:034.192 JLINK_ReadMemEx(0x200046A0, 0x4 Bytes, Flags = 0x02000000)
T52C0 005:034.197    -- Read from C cache (4 bytes @ 0x200046A0)
T52C0 005:034.201   Data:  EC 01 00 20
T52C0 005:034.205 - 0.015ms returns 4 (0x4)
T52C0 005:034.209 JLINK_ReadMemEx(0x200046A4, 0x4 Bytes, Flags = 0x02000000)
T52C0 005:034.213    -- Read from C cache (4 bytes @ 0x200046A4)
T52C0 005:034.217   Data:  87 62 00 08
T52C0 005:034.221 - 0.012ms returns 4 (0x4)
T52C0 005:034.225 JLINK_ReadMemEx(0x200046AC, 0x4 Bytes, Flags = 0x02000000)
T52C0 005:034.229    -- Read from C cache (4 bytes @ 0x200046AC)
T52C0 005:034.233   Data:  C1 6E 00 08
T52C0 005:034.237 - 0.012ms returns 4 (0x4)
T52C0 005:034.655 JLINK_ReadMemEx(0x200046A8, 0x4 Bytes, Flags = 0x02000000)
T52C0 005:034.660    -- Read from C cache (4 bytes @ 0x200046A8)
T52C0 005:034.664   Data:  EC 01 00 20
T52C0 005:034.668 - 0.013ms returns 4 (0x4)
T52C0 005:034.671 JLINK_ReadMemEx(0x200046AC, 0x4 Bytes, Flags = 0x02000000)
T52C0 005:034.677    -- Read from C cache (4 bytes @ 0x200046AC)
T52C0 005:034.681   Data:  C1 6E 00 08
T52C0 005:034.685 - 0.015ms returns 4 (0x4)
T52C0 005:034.690 JLINK_ReadMemEx(0x200046D4, 0x4 Bytes, Flags = 0x02000000)
T52C0 005:034.694   CPU_ReadMem(64 bytes @ 0x200046C0)
T52C0 005:035.053    -- Updating C cache (64 bytes @ 0x200046C0)
T52C0 005:035.058    -- Read from C cache (4 bytes @ 0x200046D4)
T52C0 005:035.062   Data:  E1 68 00 08
T52C0 005:035.066 - 0.377ms returns 4 (0x4)
T52C0 005:035.076 JLINK_ReadMemEx(0x200046C0, 0x4 Bytes, Flags = 0x02000000)
T52C0 005:035.080    -- Read from C cache (4 bytes @ 0x200046C0)
T52C0 005:035.084   Data:  00 00 00 00
T52C0 005:035.088 - 0.013ms returns 4 (0x4)
T52C0 005:035.092 JLINK_ReadMemEx(0x200046C4, 0x4 Bytes, Flags = 0x02000000)
T52C0 005:035.095    -- Read from C cache (4 bytes @ 0x200046C4)
T52C0 005:035.099   Data:  00 00 00 00
T52C0 005:035.103 - 0.012ms returns 4 (0x4)
T52C0 005:035.106 JLINK_ReadMemEx(0x200046C8, 0x4 Bytes, Flags = 0x02000000)
T52C0 005:035.110    -- Read from C cache (4 bytes @ 0x200046C8)
T52C0 005:035.114   Data:  B8 00 00 20
T52C0 005:035.118 - 0.012ms returns 4 (0x4)
T52C0 005:035.121 JLINK_ReadMemEx(0x200046CC, 0x4 Bytes, Flags = 0x02000000)
T52C0 005:035.124    -- Read from C cache (4 bytes @ 0x200046CC)
T52C0 005:035.128   Data:  00 00 00 00
T52C0 005:035.132 - 0.012ms returns 4 (0x4)
T52C0 005:035.135 JLINK_ReadMemEx(0x200046D0, 0x4 Bytes, Flags = 0x02000000)
T52C0 005:035.139    -- Read from C cache (4 bytes @ 0x200046D0)
T52C0 005:035.143   Data:  01 00 00 00
T52C0 005:035.146 - 0.012ms returns 4 (0x4)
T52C0 005:035.150 JLINK_ReadMemEx(0x200046D4, 0x4 Bytes, Flags = 0x02000000)
T52C0 005:035.153    -- Read from C cache (4 bytes @ 0x200046D4)
T52C0 005:035.157   Data:  E1 68 00 08
T52C0 005:035.161 - 0.012ms returns 4 (0x4)
T52C0 005:035.165 JLINK_ReadMemEx(0x200046FC, 0x4 Bytes, Flags = 0x02000000)
T52C0 005:035.169    -- Read from C cache (4 bytes @ 0x200046FC)
T52C0 005:035.173   Data:  1D 26 00 08
T52C0 005:035.176 - 0.012ms returns 4 (0x4)
T52C0 005:035.229 JLINK_ReadMemEx(0x200046E8, 0x4 Bytes, Flags = 0x02000000)
T52C0 005:035.233    -- Read from C cache (4 bytes @ 0x200046E8)
T52C0 005:035.238   Data:  18 00 00 20
T52C0 005:035.242 - 0.014ms returns 4 (0x4)
T52C0 005:035.245 JLINK_ReadMemEx(0x200046EC, 0x4 Bytes, Flags = 0x02000000)
T52C0 005:035.248    -- Read from C cache (4 bytes @ 0x200046EC)
T52C0 005:035.252   Data:  00 00 00 00
T52C0 005:035.256 - 0.012ms returns 4 (0x4)
T52C0 005:035.260 JLINK_ReadMemEx(0x200046F0, 0x4 Bytes, Flags = 0x02000000)
T52C0 005:035.263    -- Read from C cache (4 bytes @ 0x200046F0)
T52C0 005:035.267   Data:  00 00 00 00
T52C0 005:035.271 - 0.012ms returns 4 (0x4)
T52C0 005:035.274 JLINK_ReadMemEx(0x200046F4, 0x4 Bytes, Flags = 0x02000000)
T52C0 005:035.278    -- Read from C cache (4 bytes @ 0x200046F4)
T52C0 005:035.281   Data:  00 00 00 00
T52C0 005:035.285 - 0.012ms returns 4 (0x4)
T52C0 005:035.289 JLINK_ReadMemEx(0x200046F8, 0x4 Bytes, Flags = 0x02000000)
T52C0 005:035.292    -- Read from C cache (4 bytes @ 0x200046F8)
T52C0 005:035.296   Data:  00 00 00 00
T52C0 005:035.300 - 0.012ms returns 4 (0x4)
T52C0 005:035.303 JLINK_ReadMemEx(0x200046FC, 0x4 Bytes, Flags = 0x02000000)
T52C0 005:035.307    -- Read from C cache (4 bytes @ 0x200046FC)
T52C0 005:035.311   Data:  1D 26 00 08
T52C0 005:035.314 - 0.012ms returns 4 (0x4)
T52C0 005:035.319 JLINK_ReadMemEx(0x20004774, 0x4 Bytes, Flags = 0x02000000)
T52C0 005:035.323   CPU_ReadMem(64 bytes @ 0x20004740)
T52C0 005:035.680    -- Updating C cache (64 bytes @ 0x20004740)
T52C0 005:035.685    -- Read from C cache (4 bytes @ 0x20004774)
T52C0 005:035.689   Data:  25 33 00 08
T52C0 005:035.693 - 0.375ms returns 4 (0x4)
T52C0 005:035.740 JLINK_ReadMemEx(0x20004770, 0x4 Bytes, Flags = 0x02000000)
T52C0 005:035.744    -- Read from C cache (4 bytes @ 0x20004770)
T52C0 005:035.748   Data:  00 00 00 00
T52C0 005:035.752 - 0.013ms returns 4 (0x4)
T52C0 005:035.757 JLINK_ReadMemEx(0x20004774, 0x4 Bytes, Flags = 0x02000000)
T52C0 005:035.760    -- Read from C cache (4 bytes @ 0x20004774)
T52C0 005:035.764   Data:  25 33 00 08
T52C0 005:035.768 - 0.013ms returns 4 (0x4)
T52C0 005:039.275 JLINK_ReadMemEx(0x20000000, 0x1 Bytes, Flags = 0x02000000)
T52C0 005:039.285   CPU_ReadMem(64 bytes @ 0x20000000)
T52C0 005:039.658    -- Updating C cache (64 bytes @ 0x20000000)
T52C0 005:039.663    -- Read from C cache (1 bytes @ 0x20000000)
T52C0 005:039.667   Data:  01
T52C0 005:039.671 - 0.398ms returns 1 (0x1)
T52C0 005:039.692 JLINK_ReadMemEx(0x20000000, 0x1 Bytes, Flags = 0x02000000)
T52C0 005:039.696    -- Read from C cache (1 bytes @ 0x20000000)
T52C0 005:039.700   Data:  01
T52C0 005:039.704 - 0.013ms returns 1 (0x1)
T52C0 005:045.696 JLINK_ReadMemEx(0x08004B34, 0x3C Bytes, Flags = 0x02000000)
T52C0 005:045.709   CPU_ReadMem(128 bytes @ 0x08004B00)
T52C0 005:046.285    -- Updating C cache (128 bytes @ 0x08004B00)
T52C0 005:046.291    -- Read from C cache (60 bytes @ 0x08004B34)
T52C0 005:046.296   Data:  00 B1 01 20 08 70 08 78 10 BD 00 00 00 00 00 20 ...
T52C0 005:046.300 - 0.605ms returns 60 (0x3C)
T52C0 005:046.305 JLINK_ReadMemEx(0x08004B34, 0x2 Bytes, Flags = 0x02000000)
T52C0 005:046.309    -- Read from C cache (2 bytes @ 0x08004B34)
T52C0 005:046.313   Data:  00 B1
T52C0 005:046.318 - 0.013ms returns 2 (0x2)
T52C0 005:046.322 JLINK_ReadMemEx(0x08004B36, 0x2 Bytes, Flags = 0x02000000)
T52C0 005:046.325    -- Read from C cache (2 bytes @ 0x08004B36)
T52C0 005:046.330   Data:  01 20
T52C0 005:046.333 - 0.012ms returns 2 (0x2)
T4CB8 009:209.186 JLINK_ReadMemEx(0x08004B34, 0x2 Bytes, Flags = 0x02000000)
T4CB8 009:209.200    -- Read from C cache (2 bytes @ 0x08004B34)
T4CB8 009:209.205   Data:  00 B1
T4CB8 009:209.209 - 0.024ms returns 2 (0x2)
T4CB8 009:209.214 JLINK_HasError()
T4CB8 009:209.220 JLINK_Step()
T4CB8 009:209.468    -- Read from C cache (2 bytes @ 0x08004B34)
T4CB8 009:209.477   CPU_ReadMem(4 bytes @ 0xE000ED18)
T4CB8 009:209.653   CPU_WriteMem(4 bytes @ 0xE000ED18)
T4CB8 009:209.882   CPU_ReadMem(4 bytes @ 0xE000ED18)
T4CB8 009:210.108   CPU_WriteMem(4 bytes @ 0xE000ED18)
T4CB8 009:210.397   CPU_ReadMem(4 bytes @ 0xE0001004)
T4CB8 009:210.595   -- Simulated
T4CB8 009:210.600 - 1.381ms returns 0
T4CB8 009:210.605 JLINK_HasError()
T4CB8 009:210.610 JLINK_ReadReg(R15 (PC))
T4CB8 009:210.614 - 0.006ms returns 0x08004B38
T4CB8 009:210.618 JLINK_ReadReg(XPSR)
T4CB8 009:210.622 - 0.004ms returns 0x41000000
T4CB8 009:211.247 JLINK_HasError()
T4CB8 009:211.252 JLINK_ReadReg(R0)
T4CB8 009:211.255 - 0.004ms returns 0x00000000
T4CB8 009:211.259 JLINK_ReadReg(R1)
T4CB8 009:211.262 - 0.004ms returns 0x20000000
T4CB8 009:211.266 JLINK_ReadReg(R2)
T4CB8 009:211.268 - 0.004ms returns 0x00000001
T4CB8 009:211.272 JLINK_ReadReg(R3)
T4CB8 009:211.275 - 0.004ms returns 0x0000EF16
T4CB8 009:211.279 JLINK_ReadReg(R4)
T4CB8 009:211.281 - 0.004ms returns 0x200001EC
T4CB8 009:211.285 JLINK_ReadReg(R5)
T4CB8 009:211.288 - 0.004ms returns 0x00000000
T4CB8 009:211.292 JLINK_ReadReg(R6)
T4CB8 009:211.294 - 0.004ms returns 0x00000000
T4CB8 009:211.298 JLINK_ReadReg(R7)
T4CB8 009:211.301 - 0.004ms returns 0x00000000
T4CB8 009:211.304 JLINK_ReadReg(R8)
T4CB8 009:211.308 - 0.004ms returns 0x00000000
T4CB8 009:211.311 JLINK_ReadReg(R9)
T4CB8 009:211.314 - 0.004ms returns 0x00000000
T4CB8 009:211.318 JLINK_ReadReg(R10)
T4CB8 009:211.321 - 0.004ms returns 0x00000000
T4CB8 009:211.324 JLINK_ReadReg(R11)
T4CB8 009:211.327 - 0.004ms returns 0x00000000
T4CB8 009:211.331 JLINK_ReadReg(R12)
T4CB8 009:211.334 - 0.004ms returns 0x82800000
T4CB8 009:211.337 JLINK_ReadReg(R13 (SP))
T4CB8 009:211.341 - 0.004ms returns 0x200046A0
T4CB8 009:211.344 JLINK_ReadReg(R14)
T4CB8 009:211.347 - 0.004ms returns 0x080051BD
T4CB8 009:211.351 JLINK_ReadReg(R15 (PC))
T4CB8 009:211.354 - 0.004ms returns 0x08004B38
T4CB8 009:211.357 JLINK_ReadReg(XPSR)
T4CB8 009:211.360 - 0.004ms returns 0x41000000
T4CB8 009:211.364 JLINK_ReadReg(MSP)
T4CB8 009:211.369 - 0.007ms returns 0x20009F58
T4CB8 009:211.374 JLINK_ReadReg(PSP)
T4CB8 009:211.377 - 0.004ms returns 0x200046A0
T4CB8 009:211.380 JLINK_ReadReg(CFBP)
T4CB8 009:211.383 - 0.004ms returns 0x06000000
T4CB8 009:211.387 JLINK_ReadReg(FPSCR)
T4CB8 009:211.390 - 0.004ms returns 0x20000010
T4CB8 009:211.394 JLINK_ReadReg(FPS0)
T4CB8 009:211.397 - 0.004ms returns 0x00000008
T4CB8 009:211.400 JLINK_ReadReg(FPS1)
T4CB8 009:211.403 - 0.004ms returns 0x3F800000
T4CB8 009:211.407 JLINK_ReadReg(FPS2)
T4CB8 009:211.410 - 0.004ms returns 0x3F800000
T4CB8 009:211.413 JLINK_ReadReg(FPS3)
T4CB8 009:211.416 - 0.004ms returns 0x3F800000
T4CB8 009:211.420 JLINK_ReadReg(FPS4)
T4CB8 009:211.423 - 0.004ms returns 0x00000000
T4CB8 009:211.426 JLINK_ReadReg(FPS5)
T4CB8 009:211.429 - 0.004ms returns 0x41800000
T4CB8 009:211.433 JLINK_ReadReg(FPS6)
T4CB8 009:211.436 - 0.004ms returns 0x00000000
T4CB8 009:211.439 JLINK_ReadReg(FPS7)
T4CB8 009:211.442 - 0.005ms returns 0x3E4CE27E
T4CB8 009:211.447 JLINK_ReadReg(FPS8)
T4CB8 009:211.451 - 0.004ms returns 0x00000000
T4CB8 009:211.454 JLINK_ReadReg(FPS9)
T4CB8 009:211.457 - 0.004ms returns 0x00000000
T4CB8 009:211.460 JLINK_ReadReg(FPS10)
T4CB8 009:211.463 - 0.004ms returns 0x00000000
T4CB8 009:211.467 JLINK_ReadReg(FPS11)
T4CB8 009:211.470 - 0.004ms returns 0x00000000
T4CB8 009:211.473 JLINK_ReadReg(FPS12)
T4CB8 009:211.476 - 0.004ms returns 0x00000000
T4CB8 009:211.480 JLINK_ReadReg(FPS13)
T4CB8 009:211.483 - 0.004ms returns 0x00000000
T4CB8 009:211.486 JLINK_ReadReg(FPS14)
T4CB8 009:211.489 - 0.004ms returns 0x00000000
T4CB8 009:211.493 JLINK_ReadReg(FPS15)
T4CB8 009:211.495 - 0.004ms returns 0x00000000
T4CB8 009:211.499 JLINK_ReadReg(FPS16)
T4CB8 009:211.502 - 0.004ms returns 0x00000000
T4CB8 009:211.505 JLINK_ReadReg(FPS17)
T4CB8 009:211.508 - 0.004ms returns 0x00000000
T4CB8 009:211.512 JLINK_ReadReg(FPS18)
T4CB8 009:211.516 - 0.005ms returns 0x00000000
T4CB8 009:211.520 JLINK_ReadReg(FPS19)
T4CB8 009:211.523 - 0.004ms returns 0x00000000
T4CB8 009:211.526 JLINK_ReadReg(FPS20)
T4CB8 009:211.529 - 0.004ms returns 0x00000000
T4CB8 009:211.533 JLINK_ReadReg(FPS21)
T4CB8 009:211.536 - 0.004ms returns 0x00000000
T4CB8 009:211.539 JLINK_ReadReg(FPS22)
T4CB8 009:211.542 - 0.004ms returns 0x00000000
T4CB8 009:211.546 JLINK_ReadReg(FPS23)
T4CB8 009:211.549 - 0.004ms returns 0x00000000
T4CB8 009:211.552 JLINK_ReadReg(FPS24)
T4CB8 009:211.555 - 0.004ms returns 0x00000000
T4CB8 009:211.559 JLINK_ReadReg(FPS25)
T4CB8 009:211.563 - 0.004ms returns 0x00000000
T4CB8 009:211.566 JLINK_ReadReg(FPS26)
T4CB8 009:211.569 - 0.004ms returns 0x00000000
T4CB8 009:211.573 JLINK_ReadReg(FPS27)
T4CB8 009:211.576 - 0.004ms returns 0x00000000
T4CB8 009:211.579 JLINK_ReadReg(FPS28)
T4CB8 009:211.582 - 0.004ms returns 0x00000000
T4CB8 009:211.586 JLINK_ReadReg(FPS29)
T4CB8 009:211.588 - 0.004ms returns 0x00000000
T4CB8 009:211.592 JLINK_ReadReg(FPS30)
T4CB8 009:211.595 - 0.004ms returns 0x00000000
T4CB8 009:211.598 JLINK_ReadReg(FPS31)
T4CB8 009:211.603 - 0.005ms returns 0x00000000
T4CB8 009:211.609 JLINK_ReadMemEx(0x200000CC, 0x4 Bytes, Flags = 0x02000000)
T4CB8 009:211.614    -- Read from C cache (4 bytes @ 0x200000CC)
T4CB8 009:211.618   Data:  02 00 00 00
T4CB8 009:211.622 - 0.014ms returns 4 (0x4)
T4CB8 009:211.626 JLINK_ReadMemEx(0x200000BC, 0x4 Bytes, Flags = 0x02000000)
T4CB8 009:211.630    -- Read from C cache (4 bytes @ 0x200000BC)
T4CB8 009:211.634   Data:  88 47 00 20
T4CB8 009:211.638 - 0.013ms returns 4 (0x4)
T52C0 009:211.864 JLINK_ReadMemEx(0x200046A4, 0x4 Bytes, Flags = 0x02000000)
T52C0 009:211.878    -- Read from C cache (4 bytes @ 0x200046A4)
T52C0 009:211.882   Data:  87 62 00 08
T52C0 009:211.887 - 0.023ms returns 4 (0x4)
T52C0 009:211.893 JLINK_ReadMemEx(0x200046A0, 0x4 Bytes, Flags = 0x02000000)
T52C0 009:211.897    -- Read from C cache (4 bytes @ 0x200046A0)
T52C0 009:211.901   Data:  EC 01 00 20
T52C0 009:211.905 - 0.013ms returns 4 (0x4)
T52C0 009:211.909 JLINK_ReadMemEx(0x200046A4, 0x4 Bytes, Flags = 0x02000000)
T52C0 009:211.915    -- Read from C cache (4 bytes @ 0x200046A4)
T52C0 009:211.920   Data:  87 62 00 08
T52C0 009:211.924 - 0.017ms returns 4 (0x4)
T52C0 009:211.928 JLINK_ReadMemEx(0x200046AC, 0x4 Bytes, Flags = 0x02000000)
T52C0 009:211.932    -- Read from C cache (4 bytes @ 0x200046AC)
T52C0 009:211.936   Data:  C1 6E 00 08
T52C0 009:211.940 - 0.012ms returns 4 (0x4)
T52C0 009:211.947 JLINK_ReadMemEx(0x200046A8, 0x4 Bytes, Flags = 0x02000000)
T52C0 009:211.951    -- Read from C cache (4 bytes @ 0x200046A8)
T52C0 009:211.955   Data:  EC 01 00 20
T52C0 009:211.959 - 0.012ms returns 4 (0x4)
T52C0 009:211.962 JLINK_ReadMemEx(0x200046AC, 0x4 Bytes, Flags = 0x02000000)
T52C0 009:211.965    -- Read from C cache (4 bytes @ 0x200046AC)
T52C0 009:211.969   Data:  C1 6E 00 08
